
TDCE0 000:304 SEGGER J-Link V5.02f Log File (0001ms, 0271ms total)
TDCE0 000:304 DLL Compiled: Oct  2 2015 20:51:34 (0001ms, 0271ms total)
TDCE0 000:304 Logging started @ 2020-11-23 09:02 (0001ms, 0271ms total)
TDCE0 000:305 JLINK_SetWarnOutHandler(...) (0000ms, 0271ms total)
TDCE0 000:305 JLINK_OpenEx(...)
Firmware: J-Link V9 compiled Oct 25 2018 11:46:07
Hardware: V9.60
S/N: 583648125
Feature(s): GDB, RDI, FlashBP, FlashDL, JFlash, RDDI  returns O.K. (0272ms, 0543ms total)
TDCE0 000:577 JLINK_SetErrorOutHandler(...) (0000ms, 0543ms total)
TDCE0 000:577 JLINK_ExecCommand("ProjectFile = "E:\SVN项目文档\通用产品\FM402\例程0.12\例程0.12\UART 查询\MDK-ARM\JLinkSettings.ini"", ...)Device "CORTEX-M0" selected.  returns 0x00 (0002ms, 0545ms total)
TDCE0 000:579 JLINK_ExecCommand("Device = FM33LC04X", ...)Device "CORTEX-M0" selected.  returns 0x00 (0001ms, 0546ms total)
TDCE0 000:580 JLINK_ExecCommand("DisableConnectionTimeout", ...)  returns 0x01 (0000ms, 0546ms total)
TDCE0 000:580 JLINK_GetHardwareVersion()  returns 0x17700 (0000ms, 0546ms total)
TDCE0 000:580 JLINK_GetDLLVersion()  returns 50206 (0000ms, 0546ms total)
TDCE0 000:580 JLINK_GetFirmwareString(...) (0000ms, 0546ms total)
TDCE0 000:581 JLINK_GetDLLVersion()  returns 50206 (0000ms, 0546ms total)
TDCE0 000:581 JLINK_GetCompileDateTime() (0000ms, 0546ms total)
TDCE0 000:582 JLINK_GetFirmwareString(...) (0000ms, 0546ms total)
TDCE0 000:582 JLINK_GetHardwareVersion()  returns 0x17700 (0000ms, 0546ms total)
TDCE0 000:583 JLINK_TIF_Select(JLINKARM_TIF_SWD)  returns 0x00 (0001ms, 0547ms total)
TDCE0 000:584 JLINK_SetSpeed(2000) (0000ms, 0547ms total)
TDCE0 000:584 JLINK_GetId() >0x108 TIF>Found SWD-DP with ID 0x0BB11477 >0x0D TIF> >0x21 TIF> >0x0D TIF> >0x28 TIF> >0x0D TIF> >0x28 TIF> >0x0D TIF> >0x21 TIF> >0x0D TIF> >0x28 TIF> >0x0D TIF> >0x21 TIF> >0x0D TIF> >0x21 TIF> >0x0D TIF> >0x21 TIF> >0x0D TIF> >0x21 TIF> >0x0D TIF> >0x28 TIF> >0x0D TIF> >0x28 TIF> >0x0D TIF> >0x21 TIF> >0x0D TIF> >0x28 TIF> >0x0D TIF> >0x28 TIF> >0x0D TIF> >0x28 TIF> >0x0D TIF> >0x21 TIF> >0x0D TIF> >0x21 TIF> >0x0D TIF> >0x28 TIF> >0x0D TIF> >0x21 TIF> >0x0D TIF>
 >0x21 TIF>Found Cortex-M0 r0p0, Little endian. -- CPU_ReadMem(4 bytes @ 0xE000EDF0) -- CPU_ReadMem(4 bytes @ 0xE0002000)FPUnit: 4 code (BP) slots and 0 literal slots -- CPU_ReadMem(4 bytes @ 0xE000EDFC) -- CPU_ReadMem(4 bytes @ 0xE0001000) -- CPU_WriteMem(4 bytes @ 0xE0001000)CoreSight components:ROMTbl 0 @ E00FF000 -- CPU_ReadMem(16 bytes @ 0xE00FF000) -- CPU_ReadMem(16 bytes @ 0xE000EFF0) -- CPU_ReadMem(16 bytes @ 0xE000EFE0)ROMTbl 0 [0]: FFF0F000, CID: B105E00D, PID: 000BB00D SCS
 -- CPU_ReadMem(16 bytes @ 0xE0001FF0) -- CPU_ReadMem(16 bytes @ 0xE0001FE0)ROMTbl 0 [1]: FFF02000, CID: B105E00D, PID: 000BB00A DWT -- CPU_ReadMem(16 bytes @ 0xE0002FF0) -- CPU_ReadMem(16 bytes @ 0xE0002FE0)ROMTbl 0 [2]: FFF03000, CID: B105E00D, PID: 000BB00B FPB >0x0D TIF> >0x21 TIF>  returns 0x0BB11477 (0028ms, 0575ms total)
TDCE0 000:612 JLINK_GetDLLVersion()  returns 50206 (0000ms, 0575ms total)
TDCE0 000:612 JLINK_CORE_GetFound()  returns 0x60000FF (0000ms, 0575ms total)
TDCE0 000:612 JLINK_GetDebugInfo(0x100) -- Value=0xE00FF003  returns 0x00 (0000ms, 0575ms total)
TDCE0 000:613 JLINK_GetDebugInfo(0x100) -- Value=0xE00FF003  returns 0x00 (0000ms, 0575ms total)
TDCE0 000:613 JLINK_GetDebugInfo(0x101) -- Value=0x00000000  returns 0x00 (0000ms, 0575ms total)
TDCE0 000:613 JLINK_ReadMem (0xE0041FF0, 0x0010 Bytes, ...) -- CPU is running -- CPU_ReadMem(16 bytes @ 0xE0041FF0) - Data: 00 00 00 00 00 00 00 00 00 00 00 00 00 00 00 00  returns 0x00 (0002ms, 0577ms total)
TDCE0 000:615 JLINK_GetDebugInfo(0x102) -- Value=0x00000000  returns 0x00 (0000ms, 0577ms total)
TDCE0 000:615 JLINK_GetDebugInfo(0x103) -- Value=0x00000000  returns 0x00 (0000ms, 0577ms total)
TDCE0 000:615 JLINK_ReadMem (0xE0040FF0, 0x0010 Bytes, ...) -- CPU is running -- CPU_ReadMem(16 bytes @ 0xE0040FF0) - Data: 00 00 00 00 00 00 00 00 00 00 00 00 00 00 00 00  returns 0x00 (0000ms, 0577ms total)
TDCE0 000:615 JLINK_GetDebugInfo(0x104) -- Value=0xE0000000  returns 0x00 (0001ms, 0578ms total)
TDCE0 000:616 JLINK_GetDebugInfo(0x105) -- Value=0xE0001000  returns 0x00 (0000ms, 0578ms total)
TDCE0 000:616 JLINK_GetDebugInfo(0x106) -- Value=0xE0002000  returns 0x00 (0000ms, 0578ms total)
TDCE0 000:616 JLINK_GetDebugInfo(0x107) -- Value=0xE000E000  returns 0x00 (0000ms, 0578ms total)
TDCE0 000:616 JLINK_GetDebugInfo(0x10C) -- Value=0xE000EDF0  returns 0x00 (0000ms, 0578ms total)
TDCE0 000:616 JLINK_ReadMemU32(0xE000ED00, 0x0001 Items, ...) -- CPU is running -- CPU_ReadMem(4 bytes @ 0xE000ED00) - Data: 00 C3 0C 41  returns 0x01 (0000ms, 0578ms total)
TDCE0 000:616 JLINK_SetResetType(JLINKARM_RESET_TYPE_ADI)  returns JLINKARM_RESET_TYPE_NORMAL (0000ms, 0578ms total)
TDCE0 000:616 JLINK_Reset() -- CPU is running -- CPU_WriteMem(4 bytes @ 0xE000EDF0) -- CPU is running -- CPU_WriteMem(4 bytes @ 0xE000EDFC) -- CPU_WriteMem(4 bytes @ 0xE000EDF0) -- CPU_WriteMem(4 bytes @ 0xE000EDFC) -- CPU_ReadMem(4 bytes @ 0xE000EDF0) -- CPU_WriteMem(4 bytes @ 0xE000EDFC) -- CPU_WriteMem(4 bytes @ 0xE000ED0C) -- CPU_ReadMem(4 bytes @ 0xE000EDF0) -- CPU_ReadMem(4 bytes @ 0xE000EDF0) -- CPU_WriteMem(4 bytes @ 0xE000EDF0) -- CPU_WriteMem(4 bytes @ 0xE000EDFC) -- CPU is running
 -- CPU_ReadMem(4 bytes @ 0xE000EDF0) -- CPU_WriteMem(4 bytes @ 0xE0002000) -- CPU_ReadMem(4 bytes @ 0xE000EDFC) -- CPU_ReadMem(4 bytes @ 0xE0001000) -- CPU_WriteMem(4 bytes @ 0xE0001000) (0159ms, 0737ms total)
TDCE0 000:775 JLINK_ReadReg(R15 (PC))  returns 0x00000164 (0000ms, 0737ms total)
TDCE0 000:775 JLINK_ReadReg(XPSR)  returns 0xC1000000 (0001ms, 0738ms total)
TDCE0 000:776 JLINK_Halt()  returns 0x00 (0000ms, 0738ms total)
TDCE0 000:776 JLINK_IsHalted()  returns TRUE (0000ms, 0738ms total)
TDCE0 000:776 JLINK_ReadMemU32(0xE000EDF0, 0x0001 Items, ...) -- CPU_ReadMem(4 bytes @ 0xE000EDF0) - Data: 03 00 03 00  returns 0x01 (0000ms, 0738ms total)
TDCE0 000:776 JLINK_WriteU32(0xE000EDF0, 0xA05F0003) -- CPU_WriteMem(4 bytes @ 0xE000EDF0)  returns 0x00 (0002ms, 0740ms total)
TDCE0 000:778 JLINK_WriteU32(0xE000EDFC, 0x01000000) -- CPU_WriteMem(4 bytes @ 0xE000EDFC)  returns 0x00 (0000ms, 0740ms total)
TDCE0 000:779 JLINK_GetHWStatus(...)  returns 0x00 (0000ms, 0740ms total)
TDCE0 000:780 JLINK_GetNumBPUnits(Type = 0xFFFFFF00)  returns 0x04 (0000ms, 0740ms total)
TDCE0 000:780 JLINK_GetNumBPUnits(Type = 0xF0)  returns 0x2000 (0000ms, 0740ms total)
TDCE0 000:780 JLINK_GetNumWPUnits()  returns 0x01 (0000ms, 0740ms total)
TDCE0 000:781 JLINK_GetSpeed()  returns 0x7D0 (0000ms, 0740ms total)
TDCE0 000:781 JLINK_ReadMemU32(0xE000E004, 0x0001 Items, ...) -- CPU_ReadMem(4 bytes @ 0xE000E004) - Data: 00 00 00 00  returns 0x01 (0002ms, 0742ms total)
TDCE0 000:783 JLINK_ReadReg(R15 (PC))  returns 0x00000164 (0000ms, 0742ms total)
TDCE0 000:783 JLINK_ReadReg(XPSR)  returns 0xC1000000 (0000ms, 0742ms total)
TDCE0 000:892 JLINK_SetResetType(JLINKARM_RESET_TYPE_ADI)  returns JLINKARM_RESET_TYPE_ADI (0000ms, 0742ms total)
TDCE0 000:892 JLINK_Reset() -- CPU_WriteMem(4 bytes @ 0xE000EDF0) -- CPU_WriteMem(4 bytes @ 0xE000EDFC) -- CPU_WriteMem(4 bytes @ 0xE000EDF0) -- CPU_WriteMem(4 bytes @ 0xE000EDFC) -- CPU_ReadMem(4 bytes @ 0xE000EDF0) -- CPU_WriteMem(4 bytes @ 0xE000EDFC) -- CPU_WriteMem(4 bytes @ 0xE000ED0C) -- CPU_ReadMem(4 bytes @ 0xE000EDF0) -- CPU_ReadMem(4 bytes @ 0xE000EDF0) -- CPU_WriteMem(4 bytes @ 0xE000EDF0) -- CPU_WriteMem(4 bytes @ 0xE000EDFC) -- CPU is running -- CPU_ReadMem(4 bytes @ 0xE000EDF0)
 -- CPU_WriteMem(4 bytes @ 0xE0002000) -- CPU_ReadMem(4 bytes @ 0xE000EDFC) -- CPU_ReadMem(4 bytes @ 0xE0001000) -- CPU_WriteMem(4 bytes @ 0xE0001000) (0161ms, 0903ms total)
TDCE0 001:053 JLINK_ReadReg(R15 (PC))  returns 0x00000164 (0000ms, 0903ms total)
TDCE0 001:053 JLINK_ReadReg(XPSR)  returns 0xC1000000 (0000ms, 0903ms total)
TDCE0 001:217 JLINK_ReadMem (0x000000C0, 0x003C Bytes, ...) -- CPU_ReadMem(60 bytes @ 0x000000C0) - Data: 00 F0 02 F8 00 F0 3E F8 0C A0 30 C8 08 38 24 18 ...  returns 0x00 (0001ms, 0904ms total)
TDCE0 001:218 JLINK_ReadMem (0x000000FC, 0x003C Bytes, ...) -- CPU_ReadMem(60 bytes @ 0x000000FC) - Data: D0 10 00 00 F0 10 00 00 10 3A 02 D3 78 C8 78 C1 ...  returns 0x00 (0001ms, 0905ms total)
TDCE0 001:219 JLINK_ReadMem (0x00000138, 0x003C Bytes, ...) -- CPU_ReadMem(60 bytes @ 0x00000138) - Data: 0B 60 70 47 1F B5 1F BD 10 B5 10 BD 00 F0 7B F9 ...  returns 0x00 (0001ms, 0906ms total)
T53A8 002:255 JLINK_SetBPEx(Addr = 0x00001194, Type = 0xFFFFFFF2)  returns 0x00000001 (0000ms, 0906ms total)
T53A8 002:255 JLINK_Go() -- CPU_WriteMem(4 bytes @ 0xE0002000) -- CPU_ReadMem(4 bytes @ 0xE0001000) -- CPU_WriteMem(4 bytes @ 0xE0001000) -- CPU_WriteMem(4 bytes @ 0xE0002008) -- CPU_WriteMem(4 bytes @ 0xE000200C) -- CPU_WriteMem(4 bytes @ 0xE0002010) -- CPU_WriteMem(4 bytes @ 0xE0002014) -- CPU_WriteMem(4 bytes @ 0xE0001004) (0003ms, 0909ms total)
T53A8 002:359 JLINK_IsHalted()  returns TRUE (0002ms, 0911ms total)
T53A8 002:361 JLINK_Halt()  returns 0x00 (0000ms, 0909ms total)
T53A8 002:361 JLINK_IsHalted()  returns TRUE (0000ms, 0909ms total)
T53A8 002:361 JLINK_IsHalted()  returns TRUE (0000ms, 0909ms total)
T53A8 002:361 JLINK_IsHalted()  returns TRUE (0000ms, 0909ms total)
T53A8 002:361 JLINK_ReadReg(R15 (PC))  returns 0x00001194 (0000ms, 0909ms total)
T53A8 002:361 JLINK_ReadReg(XPSR)  returns 0x01000000 (0000ms, 0909ms total)
T53A8 002:361 JLINK_ClrBPEx(BPHandle = 0x00000001)  returns 0x00 (0000ms, 0909ms total)
T53A8 002:361 JLINK_ReadMemU32(0xE000ED30, 0x0001 Items, ...) -- CPU_ReadMem(4 bytes @ 0xE000ED30) - Data: 02 00 00 00  returns 0x01 (0001ms, 0910ms total)
T53A8 002:362 JLINK_ReadMemU32(0xE0001028, 0x0001 Items, ...) -- CPU_ReadMem(4 bytes @ 0xE0001028) - Data: 00 00 00 00  returns 0x01 (0000ms, 0910ms total)
T53A8 002:362 JLINK_ReadReg(R0)  returns 0x20000068 (0000ms, 0910ms total)
T53A8 002:362 JLINK_ReadReg(R1)  returns 0x20000868 (0000ms, 0910ms total)
T53A8 002:362 JLINK_ReadReg(R2)  returns 0x20000868 (0000ms, 0910ms total)
T53A8 002:362 JLINK_ReadReg(R3)  returns 0x20000868 (0000ms, 0910ms total)
T53A8 002:362 JLINK_ReadReg(R4)  returns 0x000011EC (0000ms, 0910ms total)
T53A8 002:362 JLINK_ReadReg(R5)  returns 0x20000004 (0000ms, 0910ms total)
T53A8 002:362 JLINK_ReadReg(R6)  returns 0x00000000 (0000ms, 0910ms total)
T53A8 002:362 JLINK_ReadReg(R7)  returns 0x00000000 (0000ms, 0910ms total)
T53A8 002:362 JLINK_ReadReg(R8)  returns 0x00000000 (0000ms, 0910ms total)
T53A8 002:362 JLINK_ReadReg(R9)  returns 0x2000020C (0000ms, 0910ms total)
T53A8 002:362 JLINK_ReadReg(R10)  returns 0x000011EC (0000ms, 0910ms total)
T53A8 002:362 JLINK_ReadReg(R11)  returns 0x000011EC (0000ms, 0910ms total)
T53A8 002:362 JLINK_ReadReg(R12)  returns 0x00000000 (0000ms, 0910ms total)
T53A8 002:362 JLINK_ReadReg(R13 (SP))  returns 0x20001068 (0000ms, 0910ms total)
T53A8 002:362 JLINK_ReadReg(R14)  returns 0x00000153 (0000ms, 0910ms total)
T53A8 002:362 JLINK_ReadReg(R15 (PC))  returns 0x00001194 (0001ms, 0911ms total)
T53A8 002:363 JLINK_ReadReg(XPSR)  returns 0x01000000 (0000ms, 0911ms total)
T53A8 002:363 JLINK_ReadReg(MSP)  returns 0x20001068 (0000ms, 0911ms total)
T53A8 002:363 JLINK_ReadReg(PSP)  returns 0x20001000 (0000ms, 0911ms total)
T53A8 002:363 JLINK_ReadReg(CFBP)  returns 0x00000000 (0000ms, 0911ms total)
TDCE0 002:367 JLINK_ReadMem (0x00001094, 0x003C Bytes, ...) -- CPU_ReadMem(128 bytes @ 0x00001080) -- Updating DA cache (128 bytes @ 0x00001080) -- Read from DA cache (60 bytes @ 0x00001094) - Data: 09 90 0A 90 0B 90 07 A9 24 48 FF F7 01 FB 00 20 ...  returns 0x00 (0008ms, 0919ms total)
TDCE0 002:376 JLINK_ReadMem (0x000010D0, 0x003C Bytes, ...) -- CPU_ReadMem(64 bytes @ 0x00001100) -- Updating DA cache (64 bytes @ 0x00001100) -- Read from DA cache (60 bytes @ 0x000010D0) - Data: 08 90 00 20 09 90 0A 90 0B 90 07 A9 14 48 40 30 ...  returns 0x00 (0001ms, 0921ms total)
TDCE0 002:377 JLINK_ReadMem (0x0000110C, 0x003C Bytes, ...) -- CPU_ReadMem(64 bytes @ 0x00001140) -- Updating DA cache (64 bytes @ 0x00001140) -- Read from DA cache (60 bytes @ 0x0000110C) - Data: 40 20 02 90 00 20 03 90 10 20 04 90 03 20 05 90 ...  returns 0x00 (0001ms, 0922ms total)
TDCE0 002:378 JLINK_ReadMem (0x00001148, 0x003C Bytes, ...) -- CPU_ReadMem(64 bytes @ 0x00001180) -- Updating DA cache (64 bytes @ 0x00001180) -- Read from DA cache (60 bytes @ 0x00001148) - Data: F8 B5 82 B2 8B B2 04 0C 0D 0C 10 46 58 43 00 21 ...  returns 0x00 (0001ms, 0923ms total)
TDCE0 002:379 JLINK_ReadMem (0x00001184, 0x003C Bytes, ...) -- Read from DA cache (60 bytes @ 0x00001184) - Data: 04 D3 63 5D 5B 00 E3 18 30 BC 18 47 1D 46 F8 E7 ...  returns 0x00 (0000ms, 0923ms total)
TDCE0 020:384 JLINK_ReadMem (0x00000FF0, 0x0010 Bytes, ...) -- CPU_ReadMem(64 bytes @ 0x00000FC0) -- Updating DA cache (64 bytes @ 0x00000FC0) -- Read from DA cache (16 bytes @ 0x00000FF0) - Data: 20 46 00 F0 2F F8 00 25 10 E0 01 A8 41 5D 20 46  returns 0x00 (0002ms, 0925ms total)
TDCE0 020:386 JLINK_ReadMem (0x00001000, 0x002C Bytes, ...) -- CPU_ReadMem(64 bytes @ 0x00001000) -- Updating DA cache (64 bytes @ 0x00001000) -- Read from DA cache (44 bytes @ 0x00001000) - Data: FF F7 0E FF 00 BF 00 BF A0 68 C0 07 C0 0F 01 21 ...  returns 0x00 (0001ms, 0926ms total)
TDCE0 030:275 JLINK_ReadMem (0x00000CD4, 0x003C Bytes, ...) -- CPU_ReadMem(128 bytes @ 0x00000CC0) -- Updating DA cache (128 bytes @ 0x00000CC0) -- Read from DA cache (60 bytes @ 0x00000CD4) - Data: FF F7 DC FE 00 90 FF F7 BD FD 01 90 FF F7 E6 FD ...  returns 0x00 (0003ms, 0929ms total)
T53A8 036:397 JLINK_SetBPEx(Addr = 0x00001120, Type = 0xFFFFFFF2)  returns 0x00000002 (0000ms, 0929ms total)
T53A8 036:397 JLINK_SetBPEx(Addr = 0x00000C82, Type = 0xFFFFFFF2)  returns 0x00000003 (0001ms, 0930ms total)
T53A8 036:398 JLINK_Go() -- CPU_WriteMem(4 bytes @ 0xE0002000) -- CPU_WriteMem(4 bytes @ 0xE0002000) -- CPU_ReadMem(4 bytes @ 0xE0001000) -- CPU_WriteMem(4 bytes @ 0xE0001000) -- CPU_WriteMem(4 bytes @ 0xE0002008) -- CPU_WriteMem(4 bytes @ 0xE000200C) (0003ms, 0933ms total)
T53A8 036:502 JLINK_IsHalted()  returns FALSE (0000ms, 0933ms total)
T53A8 036:603 JLINK_IsHalted()  returns FALSE (0000ms, 0933ms total)
T53A8 036:705 JLINK_IsHalted()  returns FALSE (0000ms, 0933ms total)
T53A8 036:806 JLINK_IsHalted()  returns FALSE (0000ms, 0933ms total)
T53A8 036:907 JLINK_IsHalted()  returns FALSE (0001ms, 0934ms total)
T53A8 037:009 JLINK_IsHalted()  returns FALSE (0000ms, 0933ms total)
T53A8 037:109 JLINK_IsHalted()  returns FALSE (0000ms, 0933ms total)
T53A8 037:210 JLINK_IsHalted()  returns FALSE (0000ms, 0933ms total)
T53A8 037:311 JLINK_IsHalted()  returns FALSE (0000ms, 0933ms total)
T53A8 037:412 JLINK_IsHalted()  returns FALSE (0001ms, 0934ms total)
T53A8 037:513 JLINK_IsHalted()  returns TRUE (0004ms, 0937ms total)
T53A8 037:517 JLINK_Halt()  returns 0x00 (0000ms, 0933ms total)
T53A8 037:517 JLINK_IsHalted()  returns TRUE (0000ms, 0933ms total)
T53A8 037:517 JLINK_IsHalted()  returns TRUE (0000ms, 0933ms total)
T53A8 037:517 JLINK_IsHalted()  returns TRUE (0000ms, 0933ms total)
T53A8 037:517 JLINK_ReadReg(R15 (PC))  returns 0x00001120 (0000ms, 0933ms total)
T53A8 037:517 JLINK_ReadReg(XPSR)  returns 0x41000000 (0000ms, 0933ms total)
T53A8 037:517 JLINK_ClrBPEx(BPHandle = 0x00000002)  returns 0x00 (0000ms, 0933ms total)
T53A8 037:517 JLINK_ClrBPEx(BPHandle = 0x00000003)  returns 0x00 (0000ms, 0933ms total)
T53A8 037:517 JLINK_ReadMemU32(0xE000ED30, 0x0001 Items, ...) -- CPU_ReadMem(4 bytes @ 0xE000ED30) - Data: 02 00 00 00  returns 0x01 (0001ms, 0934ms total)
T53A8 037:518 JLINK_ReadMemU32(0xE0001028, 0x0001 Items, ...) -- CPU_ReadMem(4 bytes @ 0xE0001028) - Data: 00 00 00 00  returns 0x01 (0001ms, 0935ms total)
T53A8 037:519 JLINK_ReadReg(R0)  returns 0x00000000 (0000ms, 0935ms total)
T53A8 037:519 JLINK_ReadReg(R1)  returns 0x00004000 (0000ms, 0935ms total)
T53A8 037:519 JLINK_ReadReg(R2)  returns 0x40000C00 (0000ms, 0935ms total)
T53A8 037:519 JLINK_ReadReg(R3)  returns 0x20001034 (0000ms, 0935ms total)
T53A8 037:519 JLINK_ReadReg(R4)  returns 0x40011C00 (0000ms, 0935ms total)
T53A8 037:519 JLINK_ReadReg(R5)  returns 0x20000004 (0000ms, 0935ms total)
T53A8 037:519 JLINK_ReadReg(R6)  returns 0x00000000 (0000ms, 0935ms total)
T53A8 037:519 JLINK_ReadReg(R7)  returns 0x00000000 (0000ms, 0935ms total)
T53A8 037:519 JLINK_ReadReg(R8)  returns 0x00000000 (0000ms, 0935ms total)
T53A8 037:519 JLINK_ReadReg(R9)  returns 0x2000020C (0000ms, 0935ms total)
T53A8 037:519 JLINK_ReadReg(R10)  returns 0x000011EC (0000ms, 0935ms total)
T53A8 037:519 JLINK_ReadReg(R11)  returns 0x000011EC (0000ms, 0935ms total)
T53A8 037:519 JLINK_ReadReg(R12)  returns 0x00000000 (0000ms, 0935ms total)
T53A8 037:519 JLINK_ReadReg(R13 (SP))  returns 0x20001018 (0000ms, 0935ms total)
T53A8 037:519 JLINK_ReadReg(R14)  returns 0x000010A3 (0000ms, 0935ms total)
T53A8 037:519 JLINK_ReadReg(R15 (PC))  returns 0x00001120 (0000ms, 0935ms total)
T53A8 037:519 JLINK_ReadReg(XPSR)  returns 0x41000000 (0000ms, 0935ms total)
T53A8 037:519 JLINK_ReadReg(MSP)  returns 0x20001018 (0000ms, 0935ms total)
T53A8 037:519 JLINK_ReadReg(PSP)  returns 0x20001000 (0000ms, 0935ms total)
T53A8 037:519 JLINK_ReadReg(CFBP)  returns 0x00000000 (0000ms, 0935ms total)
TDCE0 037:519 JLINK_ReadMem (0x2000104C, 0x0004 Bytes, ...) -- CPU_ReadMem(4 bytes @ 0x2000104C) - Data: F7 0F 00 00  returns 0x00 (0001ms, 0936ms total)
TDCE0 037:520 JLINK_ReadMem (0x20001048, 0x0004 Bytes, ...) -- CPU_ReadMem(4 bytes @ 0x20001048) - Data: 00 1C 01 40  returns 0x00 (0000ms, 0936ms total)
TDCE0 037:520 JLINK_ReadMem (0x20001064, 0x0004 Bytes, ...) -- CPU_ReadMem(4 bytes @ 0x20001064) - Data: AB 11 00 00  returns 0x00 (0001ms, 0937ms total)
TDCE0 037:521 JLINK_ReadMem (0x20001060, 0x0004 Bytes, ...) -- CPU_ReadMem(4 bytes @ 0x20001060) - Data: EC 11 00 00  returns 0x00 (0001ms, 0938ms total)
TDCE0 037:533 JLINK_ReadMem (0x0000111C, 0x003C Bytes, ...) -- CPU_ReadMem(128 bytes @ 0x00001100) -- Updating DA cache (128 bytes @ 0x00001100) -- Read from DA cache (60 bytes @ 0x0000111C) - Data: 00 20 06 90 69 46 20 46 FF F7 14 FD 0C B0 10 BD ...  returns 0x00 (0002ms, 0940ms total)
TDCE0 042:589 JLINK_ReadMem (0x000011A4, 0x003C Bytes, ...) -- CPU_ReadMem(128 bytes @ 0x00001180) -- Updating DA cache (128 bytes @ 0x00001180) -- Read from DA cache (60 bytes @ 0x000011A4) - Data: 07 48 FF F7 1D FF 0A E0 01 20 06 49 09 69 41 40 ...  returns 0x00 (0002ms, 0942ms total)
T53A8 044:743 JLINK_SetBPEx(Addr = 0x00000C82, Type = 0xFFFFFFF2)  returns 0x00000004 (0000ms, 0942ms total)
T53A8 044:743 JLINK_Go() -- CPU_WriteMem(4 bytes @ 0xE0002000) -- CPU_ReadMem(4 bytes @ 0xE0001000) -- CPU_WriteMem(4 bytes @ 0xE0001000) -- CPU_WriteMem(4 bytes @ 0xE0002008) -- CPU_WriteMem(4 bytes @ 0xE000200C) (0002ms, 0944ms total)
T53A8 044:846 JLINK_IsHalted()  returns TRUE (0003ms, 0947ms total)
T53A8 044:849 JLINK_Halt()  returns 0x00 (0001ms, 0945ms total)
T53A8 044:850 JLINK_IsHalted()  returns TRUE (0000ms, 0945ms total)
T53A8 044:850 JLINK_IsHalted()  returns TRUE (0000ms, 0945ms total)
T53A8 044:850 JLINK_IsHalted()  returns TRUE (0000ms, 0945ms total)
T53A8 044:850 JLINK_ReadReg(R15 (PC))  returns 0x00000C82 (0000ms, 0945ms total)
T53A8 044:850 JLINK_ReadReg(XPSR)  returns 0x21000000 (0000ms, 0945ms total)
T53A8 044:850 JLINK_ClrBPEx(BPHandle = 0x00000004)  returns 0x00 (0000ms, 0945ms total)
T53A8 044:850 JLINK_ReadMemU32(0xE000ED30, 0x0001 Items, ...) -- CPU_ReadMem(4 bytes @ 0xE000ED30) - Data: 02 00 00 00  returns 0x01 (0000ms, 0945ms total)
T53A8 044:851 JLINK_ReadMemU32(0xE0001028, 0x0001 Items, ...) -- CPU_ReadMem(4 bytes @ 0xE0001028) - Data: 00 00 00 00  returns 0x01 (0000ms, 0946ms total)
T53A8 044:851 JLINK_ReadReg(R0)  returns 0x00000001 (0000ms, 0946ms total)
T53A8 044:851 JLINK_ReadReg(R1)  returns 0x00070800 (0000ms, 0946ms total)
T53A8 044:851 JLINK_ReadReg(R2)  returns 0x40000C00 (0000ms, 0946ms total)
T53A8 044:851 JLINK_ReadReg(R3)  returns 0x20001034 (0000ms, 0946ms total)
T53A8 044:851 JLINK_ReadReg(R4)  returns 0x20001018 (0000ms, 0946ms total)
T53A8 044:852 JLINK_ReadReg(R5)  returns 0x40011C00 (0000ms, 0946ms total)
T53A8 044:852 JLINK_ReadReg(R6)  returns 0x00000000 (0000ms, 0946ms total)
T53A8 044:852 JLINK_ReadReg(R7)  returns 0x00000000 (0000ms, 0946ms total)
T53A8 044:852 JLINK_ReadReg(R8)  returns 0x00000000 (0000ms, 0946ms total)
T53A8 044:852 JLINK_ReadReg(R9)  returns 0x2000020C (0000ms, 0946ms total)
T53A8 044:852 JLINK_ReadReg(R10)  returns 0x000011EC (0000ms, 0946ms total)
T53A8 044:852 JLINK_ReadReg(R11)  returns 0x000011EC (0000ms, 0946ms total)
T53A8 044:852 JLINK_ReadReg(R12)  returns 0x00000000 (0000ms, 0946ms total)
T53A8 044:852 JLINK_ReadReg(R13 (SP))  returns 0x20000FF8 (0000ms, 0946ms total)
T53A8 044:852 JLINK_ReadReg(R14)  returns 0x00001129 (0000ms, 0946ms total)
T53A8 044:852 JLINK_ReadReg(R15 (PC))  returns 0x00000C82 (0000ms, 0946ms total)
T53A8 044:852 JLINK_ReadReg(XPSR)  returns 0x21000000 (0000ms, 0946ms total)
T53A8 044:852 JLINK_ReadReg(MSP)  returns 0x20000FF8 (0000ms, 0946ms total)
T53A8 044:852 JLINK_ReadReg(PSP)  returns 0x20001000 (0000ms, 0946ms total)
T53A8 044:852 JLINK_ReadReg(CFBP)  returns 0x00000000 (0000ms, 0946ms total)
TDCE0 044:853 JLINK_ReadMem (0x20001014, 0x0004 Bytes, ...) -- CPU_ReadMem(4 bytes @ 0x20001014) - Data: 29 11 00 00  returns 0x00 (0000ms, 0946ms total)
TDCE0 044:853 JLINK_ReadMem (0x20001004, 0x0004 Bytes, ...) -- CPU_ReadMem(4 bytes @ 0x20001004) - Data: 00 1C 01 40  returns 0x00 (0001ms, 0947ms total)
TDCE0 044:854 JLINK_ReadMem (0x20001008, 0x0004 Bytes, ...) -- CPU_ReadMem(4 bytes @ 0x20001008) - Data: 04 00 00 20  returns 0x00 (0001ms, 0948ms total)
TDCE0 044:855 JLINK_ReadMem (0x2000100C, 0x0004 Bytes, ...) -- CPU_ReadMem(4 bytes @ 0x2000100C) - Data: 00 00 00 00  returns 0x00 (0000ms, 0948ms total)
TDCE0 044:855 JLINK_ReadMem (0x20001010, 0x0004 Bytes, ...) -- CPU_ReadMem(4 bytes @ 0x20001010) - Data: 00 00 00 00  returns 0x00 (0001ms, 0949ms total)
TDCE0 044:856 JLINK_ReadMem (0x2000104C, 0x0004 Bytes, ...) -- CPU_ReadMem(4 bytes @ 0x2000104C) - Data: F7 0F 00 00  returns 0x00 (0001ms, 0950ms total)
TDCE0 044:857 JLINK_ReadMem (0x20001048, 0x0004 Bytes, ...) -- CPU_ReadMem(4 bytes @ 0x20001048) - Data: 00 1C 01 40  returns 0x00 (0001ms, 0951ms total)
TDCE0 044:858 JLINK_ReadMem (0x20001064, 0x0004 Bytes, ...) -- CPU_ReadMem(4 bytes @ 0x20001064) - Data: AB 11 00 00  returns 0x00 (0000ms, 0951ms total)
TDCE0 044:858 JLINK_ReadMem (0x20001060, 0x0004 Bytes, ...) -- CPU_ReadMem(4 bytes @ 0x20001060) - Data: EC 11 00 00  returns 0x00 (0001ms, 0952ms total)
TDCE0 044:859 JLINK_ReadMem (0x20001000, 0x0001 Bytes, ...) -- CPU_ReadMem(1 bytes @ 0x20001000) - Data: 00  returns 0x00 (0001ms, 0953ms total)
TDCE0 044:876 JLINK_ReadMem (0x00000C64, 0x003C Bytes, ...) -- CPU_ReadMem(128 bytes @ 0x00000C40) -- Updating DA cache (128 bytes @ 0x00000C40) -- Read from DA cache (60 bytes @ 0x00000C64) - Data: 00 BF A0 69 00 28 02 D0 A0 69 01 28 01 D1 01 20 ...  returns 0x00 (0001ms, 0954ms total)
T53A8 049:854 JLINK_SetBPEx(Addr = 0x00000CC0, Type = 0xFFFFFFF2)  returns 0x00000005 (0000ms, 0954ms total)
T53A8 049:854 JLINK_Go() -- CPU_WriteMem(4 bytes @ 0xE0002000) -- CPU_ReadMem(4 bytes @ 0xE0001000) -- CPU_WriteMem(4 bytes @ 0xE0001000) -- CPU_WriteMem(4 bytes @ 0xE0002008) (0002ms, 0956ms total)
T53A8 049:957 JLINK_IsHalted()  returns TRUE (0002ms, 0958ms total)
T53A8 049:960 JLINK_Halt()  returns 0x00 (0000ms, 0956ms total)
T53A8 049:960 JLINK_IsHalted()  returns TRUE (0000ms, 0956ms total)
T53A8 049:960 JLINK_IsHalted()  returns TRUE (0000ms, 0956ms total)
T53A8 049:960 JLINK_IsHalted()  returns TRUE (0000ms, 0956ms total)
T53A8 049:960 JLINK_ReadReg(R15 (PC))  returns 0x00000CC0 (0000ms, 0956ms total)
T53A8 049:960 JLINK_ReadReg(XPSR)  returns 0x41000000 (0000ms, 0956ms total)
T53A8 049:960 JLINK_ClrBPEx(BPHandle = 0x00000005)  returns 0x00 (0000ms, 0956ms total)
T53A8 049:960 JLINK_ReadMemU32(0xE000ED30, 0x0001 Items, ...) -- CPU_ReadMem(4 bytes @ 0xE000ED30) - Data: 02 00 00 00  returns 0x01 (0000ms, 0956ms total)
T53A8 049:960 JLINK_ReadMemU32(0xE0001028, 0x0001 Items, ...) -- CPU_ReadMem(4 bytes @ 0xE0001028) - Data: 00 00 00 00  returns 0x01 (0001ms, 0957ms total)
T53A8 049:961 JLINK_ReadReg(R0)  returns 0x40011C00 (0000ms, 0957ms total)
T53A8 049:961 JLINK_ReadReg(R1)  returns 0x00000000 (0000ms, 0957ms total)
T53A8 049:961 JLINK_ReadReg(R2)  returns 0x00000000 (0000ms, 0957ms total)
T53A8 049:961 JLINK_ReadReg(R3)  returns 0x40000240 (0000ms, 0957ms total)
T53A8 049:961 JLINK_ReadReg(R4)  returns 0x20001018 (0000ms, 0957ms total)
T53A8 049:961 JLINK_ReadReg(R5)  returns 0x40011C00 (0000ms, 0957ms total)
T53A8 049:961 JLINK_ReadReg(R6)  returns 0x00000000 (0000ms, 0957ms total)
T53A8 049:961 JLINK_ReadReg(R7)  returns 0x00000000 (0000ms, 0957ms total)
T53A8 049:961 JLINK_ReadReg(R8)  returns 0x00000000 (0000ms, 0957ms total)
T53A8 049:961 JLINK_ReadReg(R9)  returns 0x2000020C (0001ms, 0958ms total)
T53A8 049:962 JLINK_ReadReg(R10)  returns 0x000011EC (0000ms, 0958ms total)
T53A8 049:962 JLINK_ReadReg(R11)  returns 0x000011EC (0000ms, 0958ms total)
T53A8 049:962 JLINK_ReadReg(R12)  returns 0x00000000 (0000ms, 0958ms total)
T53A8 049:962 JLINK_ReadReg(R13 (SP))  returns 0x20000FF8 (0000ms, 0958ms total)
T53A8 049:962 JLINK_ReadReg(R14)  returns 0x00001129 (0000ms, 0958ms total)
T53A8 049:962 JLINK_ReadReg(R15 (PC))  returns 0x00000CC0 (0000ms, 0958ms total)
T53A8 049:962 JLINK_ReadReg(XPSR)  returns 0x41000000 (0000ms, 0958ms total)
T53A8 049:962 JLINK_ReadReg(MSP)  returns 0x20000FF8 (0000ms, 0958ms total)
T53A8 049:962 JLINK_ReadReg(PSP)  returns 0x20001000 (0000ms, 0958ms total)
T53A8 049:962 JLINK_ReadReg(CFBP)  returns 0x00000000 (0000ms, 0958ms total)
TDCE0 049:962 JLINK_ReadMem (0x20001014, 0x0004 Bytes, ...) -- CPU_ReadMem(4 bytes @ 0x20001014) - Data: 29 11 00 00  returns 0x00 (0002ms, 0960ms total)
TDCE0 049:964 JLINK_ReadMem (0x20001004, 0x0004 Bytes, ...) -- CPU_ReadMem(4 bytes @ 0x20001004) - Data: 00 1C 01 40  returns 0x00 (0000ms, 0960ms total)
TDCE0 049:964 JLINK_ReadMem (0x20001008, 0x0004 Bytes, ...) -- CPU_ReadMem(4 bytes @ 0x20001008) - Data: 04 00 00 20  returns 0x00 (0001ms, 0961ms total)
TDCE0 049:965 JLINK_ReadMem (0x2000100C, 0x0004 Bytes, ...) -- CPU_ReadMem(4 bytes @ 0x2000100C) - Data: 00 00 00 00  returns 0x00 (0001ms, 0962ms total)
TDCE0 049:966 JLINK_ReadMem (0x20001010, 0x0004 Bytes, ...) -- CPU_ReadMem(4 bytes @ 0x20001010) - Data: 00 00 00 00  returns 0x00 (0000ms, 0962ms total)
TDCE0 049:966 JLINK_ReadMem (0x2000104C, 0x0004 Bytes, ...) -- CPU_ReadMem(4 bytes @ 0x2000104C) - Data: F7 0F 00 00  returns 0x00 (0001ms, 0963ms total)
TDCE0 049:967 JLINK_ReadMem (0x20001048, 0x0004 Bytes, ...) -- CPU_ReadMem(4 bytes @ 0x20001048) - Data: 00 1C 01 40  returns 0x00 (0001ms, 0964ms total)
TDCE0 049:968 JLINK_ReadMem (0x20001064, 0x0004 Bytes, ...) -- CPU_ReadMem(4 bytes @ 0x20001064) - Data: AB 11 00 00  returns 0x00 (0000ms, 0964ms total)
TDCE0 049:968 JLINK_ReadMem (0x20001060, 0x0004 Bytes, ...) -- CPU_ReadMem(4 bytes @ 0x20001060) - Data: EC 11 00 00  returns 0x00 (0001ms, 0965ms total)
TDCE0 049:969 JLINK_ReadMem (0x20001000, 0x0001 Bytes, ...) -- CPU_ReadMem(1 bytes @ 0x20001000) - Data: 00  returns 0x00 (0001ms, 0966ms total)
TDCE0 049:970 JLINK_ReadMem (0x00000000, 0x0004 Bytes, ...) -- CPU_ReadMem(64 bytes @ 0x00000000) -- Updating DA cache (64 bytes @ 0x00000000) -- Read from DA cache (4 bytes @ 0x00000000) - Data: 68 10 00 20  returns 0x00 (0001ms, 0967ms total)
TDCE0 049:977 JLINK_ReadMem (0x00000CBE, 0x0002 Bytes, ...) -- CPU_ReadMem(64 bytes @ 0x00000C80) -- Updating DA cache (64 bytes @ 0x00000C80) -- Read from DA cache (2 bytes @ 0x00000CBE) - Data: 00 BF  returns 0x00 (0001ms, 0968ms total)
TDCE0 049:978 JLINK_ReadMem (0x00000CC0, 0x003C Bytes, ...) -- CPU_ReadMem(64 bytes @ 0x00000CC0) -- Updating DA cache (64 bytes @ 0x00000CC0) -- Read from DA cache (60 bytes @ 0x00000CC0) - Data: 20 68 00 28 06 D0 01 28 0E D0 03 28 10 D0 04 28 ...  returns 0x00 (0001ms, 0969ms total)
TDCE0 053:962 JLINK_ReadMem (0x20001018, 0x0004 Bytes, ...) -- CPU_ReadMem(4 bytes @ 0x20001018) - Data: 00 00 00 00  returns 0x00 (0001ms, 0970ms total)
T53A8 099:061 JLINK_SetBPEx(Addr = 0x00000CD4, Type = 0xFFFFFFF2)  returns 0x00000006 (0001ms, 0971ms total)
T53A8 099:062 JLINK_Go() -- CPU_WriteMem(4 bytes @ 0xE0002000) -- CPU_ReadMem(4 bytes @ 0xE0001000) -- CPU_WriteMem(4 bytes @ 0xE0001000) -- CPU_WriteMem(4 bytes @ 0xE0002008) (0002ms, 0973ms total)
T53A8 099:165 JLINK_IsHalted()  returns TRUE (0004ms, 0977ms total)
T53A8 099:169 JLINK_Halt()  returns 0x00 (0000ms, 0973ms total)
T53A8 099:169 JLINK_IsHalted()  returns TRUE (0000ms, 0973ms total)
T53A8 099:169 JLINK_IsHalted()  returns TRUE (0000ms, 0973ms total)
T53A8 099:169 JLINK_IsHalted()  returns TRUE (0000ms, 0973ms total)
T53A8 099:169 JLINK_ReadReg(R15 (PC))  returns 0x00000CD4 (0000ms, 0973ms total)
T53A8 099:169 JLINK_ReadReg(XPSR)  returns 0x61000000 (0000ms, 0973ms total)
T53A8 099:169 JLINK_ClrBPEx(BPHandle = 0x00000006)  returns 0x00 (0000ms, 0973ms total)
T53A8 099:169 JLINK_ReadMemU32(0xE000ED30, 0x0001 Items, ...) -- CPU_ReadMem(4 bytes @ 0xE000ED30) - Data: 02 00 00 00  returns 0x01 (0001ms, 0974ms total)
T53A8 099:170 JLINK_ReadMemU32(0xE0001028, 0x0001 Items, ...) -- CPU_ReadMem(4 bytes @ 0xE0001028) - Data: 00 00 00 00  returns 0x01 (0000ms, 0974ms total)
T53A8 099:170 JLINK_ReadReg(R0)  returns 0x00000000 (0000ms, 0974ms total)
T53A8 099:170 JLINK_ReadReg(R1)  returns 0x00000000 (0000ms, 0974ms total)
T53A8 099:170 JLINK_ReadReg(R2)  returns 0x00000000 (0001ms, 0975ms total)
T53A8 099:171 JLINK_ReadReg(R3)  returns 0x40000240 (0000ms, 0975ms total)
T53A8 099:171 JLINK_ReadReg(R4)  returns 0x20001018 (0000ms, 0975ms total)
T53A8 099:171 JLINK_ReadReg(R5)  returns 0x40011C00 (0000ms, 0975ms total)
T53A8 099:171 JLINK_ReadReg(R6)  returns 0x00000000 (0000ms, 0975ms total)
T53A8 099:171 JLINK_ReadReg(R7)  returns 0x00000000 (0000ms, 0975ms total)
T53A8 099:171 JLINK_ReadReg(R8)  returns 0x00000000 (0000ms, 0975ms total)
T53A8 099:171 JLINK_ReadReg(R9)  returns 0x2000020C (0000ms, 0975ms total)
T53A8 099:171 JLINK_ReadReg(R10)  returns 0x000011EC (0000ms, 0975ms total)
T53A8 099:171 JLINK_ReadReg(R11)  returns 0x000011EC (0000ms, 0975ms total)
T53A8 099:171 JLINK_ReadReg(R12)  returns 0x00000000 (0000ms, 0975ms total)
T53A8 099:171 JLINK_ReadReg(R13 (SP))  returns 0x20000FF8 (0000ms, 0975ms total)
T53A8 099:171 JLINK_ReadReg(R14)  returns 0x00001129 (0000ms, 0975ms total)
T53A8 099:171 JLINK_ReadReg(R15 (PC))  returns 0x00000CD4 (0000ms, 0975ms total)
T53A8 099:171 JLINK_ReadReg(XPSR)  returns 0x61000000 (0000ms, 0975ms total)
T53A8 099:171 JLINK_ReadReg(MSP)  returns 0x20000FF8 (0000ms, 0975ms total)
T53A8 099:171 JLINK_ReadReg(PSP)  returns 0x20001000 (0000ms, 0975ms total)
T53A8 099:171 JLINK_ReadReg(CFBP)  returns 0x00000000 (0000ms, 0975ms total)
TDCE0 099:172 JLINK_ReadMem (0x20001014, 0x0004 Bytes, ...) -- CPU_ReadMem(4 bytes @ 0x20001014) - Data: 29 11 00 00  returns 0x00 (0000ms, 0975ms total)
TDCE0 099:172 JLINK_ReadMem (0x20001004, 0x0004 Bytes, ...) -- CPU_ReadMem(4 bytes @ 0x20001004) - Data: 00 1C 01 40  returns 0x00 (0001ms, 0976ms total)
TDCE0 099:173 JLINK_ReadMem (0x20001008, 0x0004 Bytes, ...) -- CPU_ReadMem(4 bytes @ 0x20001008) - Data: 04 00 00 20  returns 0x00 (0001ms, 0977ms total)
TDCE0 099:174 JLINK_ReadMem (0x2000100C, 0x0004 Bytes, ...) -- CPU_ReadMem(4 bytes @ 0x2000100C) - Data: 00 00 00 00  returns 0x00 (0001ms, 0978ms total)
TDCE0 099:175 JLINK_ReadMem (0x20001010, 0x0004 Bytes, ...) -- CPU_ReadMem(4 bytes @ 0x20001010) - Data: 00 00 00 00  returns 0x00 (0000ms, 0978ms total)
TDCE0 099:175 JLINK_ReadMem (0x2000104C, 0x0004 Bytes, ...) -- CPU_ReadMem(4 bytes @ 0x2000104C) - Data: F7 0F 00 00  returns 0x00 (0001ms, 0979ms total)
TDCE0 099:176 JLINK_ReadMem (0x20001048, 0x0004 Bytes, ...) -- CPU_ReadMem(4 bytes @ 0x20001048) - Data: 00 1C 01 40  returns 0x00 (0001ms, 0980ms total)
TDCE0 099:177 JLINK_ReadMem (0x20001064, 0x0004 Bytes, ...) -- CPU_ReadMem(4 bytes @ 0x20001064) - Data: AB 11 00 00  returns 0x00 (0000ms, 0980ms total)
TDCE0 099:177 JLINK_ReadMem (0x20001060, 0x0004 Bytes, ...) -- CPU_ReadMem(4 bytes @ 0x20001060) - Data: EC 11 00 00  returns 0x00 (0001ms, 0981ms total)
TDCE0 099:178 JLINK_ReadMem (0x20001000, 0x0001 Bytes, ...) -- CPU_ReadMem(1 bytes @ 0x20001000) - Data: 00  returns 0x00 (0001ms, 0982ms total)
TDCE0 099:179 JLINK_ReadMem (0x00000000, 0x0004 Bytes, ...) -- CPU_ReadMem(64 bytes @ 0x00000000) -- Updating DA cache (64 bytes @ 0x00000000) -- Read from DA cache (4 bytes @ 0x00000000) - Data: 68 10 00 20  returns 0x00 (0001ms, 0983ms total)
TDCE0 099:186 JLINK_ReadMem (0x00000CC0, 0x003C Bytes, ...) -- CPU_ReadMem(64 bytes @ 0x00000CC0) -- Updating DA cache (64 bytes @ 0x00000CC0) -- Read from DA cache (60 bytes @ 0x00000CC0) - Data: 20 68 00 28 06 D0 01 28 0E D0 03 28 10 D0 04 28 ...  returns 0x00 (0001ms, 0984ms total)
TDCE0 500:781 JLINK_ReadMem (0x00000A92, 0x0002 Bytes, ...) -- CPU_ReadMem(64 bytes @ 0x00000A80) -- Updating DA cache (64 bytes @ 0x00000A80) -- Read from DA cache (2 bytes @ 0x00000A92) - Data: 00 BF  returns 0x00 (0002ms, 0986ms total)
TDCE0 500:783 JLINK_ReadMem (0x00000A94, 0x003C Bytes, ...) -- CPU_ReadMem(64 bytes @ 0x00000AC0) -- Updating DA cache (64 bytes @ 0x00000AC0) -- Read from DA cache (60 bytes @ 0x00000A94) - Data: 10 49 C9 68 49 07 49 0F 0B 00 00 F0 6B FB 08 05 ...  returns 0x00 (0001ms, 0987ms total)
TDCE0 633:644 JLINK_ReadMem (0x00000AE0, 0x003C Bytes, ...) -- CPU_ReadMem(64 bytes @ 0x00000B00) -- Updating DA cache (64 bytes @ 0x00000B00) -- Read from DA cache (60 bytes @ 0x00000AE0) - Data: 00 BF 05 48 C0 68 08 21 08 40 00 28 01 D1 03 48 ...  returns 0x00 (0002ms, 0989ms total)
T53A8 721:955 JLINK_Step() -- Read from DA cache (2 bytes @ 0x00000CD4) -- CPU_ReadMem(4 bytes @ 0xE0001004) -- Not simulated -- CPU_WriteMem(4 bytes @ 0xE0002008)  returns 0x00 (0005ms, 0994ms total)
T53A8 721:960 JLINK_ReadReg(R15 (PC))  returns 0x00000A90 (0000ms, 0994ms total)
T53A8 721:960 JLINK_ReadReg(XPSR)  returns 0x61000000 (0000ms, 0994ms total)
T53A8 721:960 JLINK_SetBPEx(Addr = 0x00000CD4, Type = 0xFFFFFFF2)  returns 0x00000007 (0000ms, 0994ms total)
T53A8 721:960 JLINK_SetBPEx(Addr = 0x000008B4, Type = 0xFFFFFFF2)  returns 0x00000008 (0000ms, 0994ms total)
T53A8 721:960 JLINK_Go() -- CPU_WriteMem(4 bytes @ 0xE0002000) -- CPU_WriteMem(4 bytes @ 0xE0002000) -- CPU_ReadMem(4 bytes @ 0xE0001000) -- CPU_WriteMem(4 bytes @ 0xE0001000) -- CPU_WriteMem(4 bytes @ 0xE0002008) -- CPU_WriteMem(4 bytes @ 0xE000200C) (0002ms, 0996ms total)
T53A8 722:063 JLINK_IsHalted()  returns TRUE (0004ms, 1000ms total)
T53A8 722:067 JLINK_Halt()  returns 0x00 (0000ms, 0996ms total)
T53A8 722:067 JLINK_IsHalted()  returns TRUE (0000ms, 0996ms total)
T53A8 722:067 JLINK_IsHalted()  returns TRUE (0000ms, 0996ms total)
T53A8 722:067 JLINK_IsHalted()  returns TRUE (0000ms, 0996ms total)
T53A8 722:067 JLINK_ReadReg(R15 (PC))  returns 0x000008B4 (0000ms, 0996ms total)
T53A8 722:067 JLINK_ReadReg(XPSR)  returns 0x61000000 (0000ms, 0996ms total)
T53A8 722:067 JLINK_ClrBPEx(BPHandle = 0x00000007)  returns 0x00 (0000ms, 0996ms total)
T53A8 722:067 JLINK_ClrBPEx(BPHandle = 0x00000008)  returns 0x00 (0000ms, 0996ms total)
T53A8 722:067 JLINK_ReadMemU32(0xE000ED30, 0x0001 Items, ...) -- CPU_ReadMem(4 bytes @ 0xE000ED30) - Data: 02 00 00 00  returns 0x01 (0001ms, 0997ms total)
T53A8 722:068 JLINK_ReadMemU32(0xE0001028, 0x0001 Items, ...) -- CPU_ReadMem(4 bytes @ 0xE0001028) - Data: 00 00 00 00  returns 0x01 (0000ms, 0997ms total)
T53A8 722:068 JLINK_ReadReg(R0)  returns 0x007A1200 (0000ms, 0997ms total)
T53A8 722:068 JLINK_ReadReg(R1)  returns 0x007A1200 (0000ms, 0997ms total)
T53A8 722:068 JLINK_ReadReg(R2)  returns 0x00000000 (0000ms, 0997ms total)
T53A8 722:068 JLINK_ReadReg(R3)  returns 0xFFFFFB00 (0000ms, 0997ms total)
T53A8 722:068 JLINK_ReadReg(R4)  returns 0x20001018 (0000ms, 0997ms total)
T53A8 722:068 JLINK_ReadReg(R5)  returns 0x40011C00 (0000ms, 0997ms total)
T53A8 722:068 JLINK_ReadReg(R6)  returns 0x00000000 (0000ms, 0997ms total)
T53A8 722:068 JLINK_ReadReg(R7)  returns 0x00000000 (0000ms, 0997ms total)
T53A8 722:068 JLINK_ReadReg(R8)  returns 0x00000000 (0000ms, 0997ms total)
T53A8 722:068 JLINK_ReadReg(R9)  returns 0x2000020C (0000ms, 0997ms total)
T53A8 722:068 JLINK_ReadReg(R10)  returns 0x000011EC (0000ms, 0997ms total)
T53A8 722:068 JLINK_ReadReg(R11)  returns 0x000011EC (0000ms, 0997ms total)
T53A8 722:068 JLINK_ReadReg(R12)  returns 0x00000000 (0000ms, 0997ms total)
T53A8 722:068 JLINK_ReadReg(R13 (SP))  returns 0x20000FF0 (0000ms, 0997ms total)
T53A8 722:068 JLINK_ReadReg(R14)  returns 0x00000CE5 (0000ms, 0997ms total)
T53A8 722:068 JLINK_ReadReg(R15 (PC))  returns 0x000008B4 (0000ms, 0997ms total)
T53A8 722:068 JLINK_ReadReg(XPSR)  returns 0x61000000 (0000ms, 0997ms total)
T53A8 722:068 JLINK_ReadReg(MSP)  returns 0x20000FF0 (0000ms, 0997ms total)
T53A8 722:068 JLINK_ReadReg(PSP)  returns 0x20001000 (0000ms, 0997ms total)
T53A8 722:068 JLINK_ReadReg(CFBP)  returns 0x00000000 (0000ms, 0997ms total)
TDCE0 722:069 JLINK_ReadMem (0x20000FF4, 0x0004 Bytes, ...) -- CPU_ReadMem(4 bytes @ 0x20000FF4) - Data: E5 0C 00 00  returns 0x00 (0001ms, 0998ms total)
TDCE0 722:070 JLINK_ReadMem (0x20000FF0, 0x0004 Bytes, ...) -- CPU_ReadMem(4 bytes @ 0x20000FF0) - Data: 18 10 00 20  returns 0x00 (0000ms, 0998ms total)
TDCE0 722:070 JLINK_ReadMem (0x20001014, 0x0004 Bytes, ...) -- CPU_ReadMem(4 bytes @ 0x20001014) - Data: 29 11 00 00  returns 0x00 (0001ms, 0999ms total)
TDCE0 722:071 JLINK_ReadMem (0x20001004, 0x0004 Bytes, ...) -- CPU_ReadMem(4 bytes @ 0x20001004) - Data: 00 1C 01 40  returns 0x00 (0001ms, 1000ms total)
TDCE0 722:072 JLINK_ReadMem (0x20001008, 0x0004 Bytes, ...) -- CPU_ReadMem(4 bytes @ 0x20001008) - Data: 04 00 00 20  returns 0x00 (0000ms, 1000ms total)
TDCE0 722:072 JLINK_ReadMem (0x2000100C, 0x0004 Bytes, ...) -- CPU_ReadMem(4 bytes @ 0x2000100C) - Data: 00 00 00 00  returns 0x00 (0001ms, 1001ms total)
TDCE0 722:073 JLINK_ReadMem (0x20001010, 0x0004 Bytes, ...) -- CPU_ReadMem(4 bytes @ 0x20001010) - Data: 00 00 00 00  returns 0x00 (0001ms, 1002ms total)
TDCE0 722:074 JLINK_ReadMem (0x2000104C, 0x0004 Bytes, ...) -- CPU_ReadMem(4 bytes @ 0x2000104C) - Data: F7 0F 00 00  returns 0x00 (0001ms, 1003ms total)
TDCE0 722:075 JLINK_ReadMem (0x20001048, 0x0004 Bytes, ...) -- CPU_ReadMem(4 bytes @ 0x20001048) - Data: 00 1C 01 40  returns 0x00 (0000ms, 1003ms total)
TDCE0 722:075 JLINK_ReadMem (0x20001064, 0x0004 Bytes, ...) -- CPU_ReadMem(4 bytes @ 0x20001064) - Data: AB 11 00 00  returns 0x00 (0001ms, 1004ms total)
TDCE0 722:076 JLINK_ReadMem (0x20001060, 0x0004 Bytes, ...) -- CPU_ReadMem(4 bytes @ 0x20001060) - Data: EC 11 00 00  returns 0x00 (0000ms, 1004ms total)
TDCE0 722:085 JLINK_ReadMem (0x20001000, 0x0001 Bytes, ...) -- CPU_ReadMem(1 bytes @ 0x20001000) - Data: 00  returns 0x00 (0000ms, 1004ms total)
TDCE0 722:085 JLINK_ReadMem (0x00000000, 0x0004 Bytes, ...) -- CPU_ReadMem(64 bytes @ 0x00000000) -- Updating DA cache (64 bytes @ 0x00000000) -- Read from DA cache (4 bytes @ 0x00000000) - Data: 68 10 00 20  returns 0x00 (0001ms, 1005ms total)
TDCE0 722:089 JLINK_ReadMem (0x000008B0, 0x003C Bytes, ...) -- CPU_ReadMem(128 bytes @ 0x00000880) -- Updating DA cache (128 bytes @ 0x00000880) -- Read from DA cache (60 bytes @ 0x000008B0) - Data: 10 B5 01 46 00 BF 13 4A D2 68 07 23 1B 04 1A 40 ...  returns 0x00 (0001ms, 1006ms total)
T53A8 766:635 JLINK_Step() -- Read from DA cache (2 bytes @ 0x000008B4) -- CPU_ReadMem(4 bytes @ 0xE0001004) -- Simulated  returns 0x00 (0001ms, 1007ms total)
T53A8 766:636 JLINK_ReadReg(R15 (PC))  returns 0x000008B6 (0000ms, 1007ms total)
T53A8 766:636 JLINK_ReadReg(XPSR)  returns 0x61000000 (0000ms, 1007ms total)
T53A8 766:636 JLINK_ReadReg(R0)  returns 0x007A1200 (0000ms, 1007ms total)
T53A8 766:636 JLINK_ReadReg(R1)  returns 0x007A1200 (0000ms, 1007ms total)
T53A8 766:636 JLINK_ReadReg(R2)  returns 0x00000000 (0000ms, 1007ms total)
T53A8 766:636 JLINK_ReadReg(R3)  returns 0xFFFFFB00 (0000ms, 1007ms total)
T53A8 766:636 JLINK_ReadReg(R4)  returns 0x20001018 (0000ms, 1007ms total)
T53A8 766:636 JLINK_ReadReg(R5)  returns 0x40011C00 (0000ms, 1007ms total)
T53A8 766:636 JLINK_ReadReg(R6)  returns 0x00000000 (0000ms, 1007ms total)
T53A8 766:636 JLINK_ReadReg(R7)  returns 0x00000000 (0000ms, 1007ms total)
T53A8 766:636 JLINK_ReadReg(R8)  returns 0x00000000 (0000ms, 1007ms total)
T53A8 766:636 JLINK_ReadReg(R9)  returns 0x2000020C (0000ms, 1007ms total)
T53A8 766:636 JLINK_ReadReg(R10)  returns 0x000011EC (0000ms, 1007ms total)
T53A8 766:636 JLINK_ReadReg(R11)  returns 0x000011EC (0000ms, 1007ms total)
T53A8 766:636 JLINK_ReadReg(R12)  returns 0x00000000 (0000ms, 1007ms total)
T53A8 766:636 JLINK_ReadReg(R13 (SP))  returns 0x20000FF0 (0000ms, 1007ms total)
T53A8 766:636 JLINK_ReadReg(R14)  returns 0x00000CE5 (0000ms, 1007ms total)
T53A8 766:636 JLINK_ReadReg(R15 (PC))  returns 0x000008B6 (0000ms, 1007ms total)
T53A8 766:636 JLINK_ReadReg(XPSR)  returns 0x61000000 (0000ms, 1007ms total)
T53A8 766:636 JLINK_ReadReg(MSP)  returns 0x20000FF0 (0000ms, 1007ms total)
T53A8 766:636 JLINK_ReadReg(PSP)  returns 0x20001000 (0000ms, 1007ms total)
T53A8 766:636 JLINK_ReadReg(CFBP)  returns 0x00000000 (0000ms, 1007ms total)
TDCE0 766:636 JLINK_ReadMem (0x20000FF4, 0x0004 Bytes, ...) -- CPU_ReadMem(4 bytes @ 0x20000FF4) - Data: E5 0C 00 00  returns 0x00 (0001ms, 1008ms total)
TDCE0 766:637 JLINK_ReadMem (0x20000FF0, 0x0004 Bytes, ...) -- CPU_ReadMem(4 bytes @ 0x20000FF0) - Data: 18 10 00 20  returns 0x00 (0000ms, 1008ms total)
TDCE0 766:637 JLINK_ReadMem (0x20001014, 0x0004 Bytes, ...) -- CPU_ReadMem(4 bytes @ 0x20001014) - Data: 29 11 00 00  returns 0x00 (0000ms, 1008ms total)
TDCE0 766:637 JLINK_ReadMem (0x20001004, 0x0004 Bytes, ...) -- CPU_ReadMem(4 bytes @ 0x20001004) - Data: 00 1C 01 40  returns 0x00 (0001ms, 1009ms total)
TDCE0 766:638 JLINK_ReadMem (0x20001008, 0x0004 Bytes, ...) -- CPU_ReadMem(4 bytes @ 0x20001008) - Data: 04 00 00 20  returns 0x00 (0000ms, 1009ms total)
TDCE0 766:638 JLINK_ReadMem (0x2000100C, 0x0004 Bytes, ...) -- CPU_ReadMem(4 bytes @ 0x2000100C) - Data: 00 00 00 00  returns 0x00 (0000ms, 1009ms total)
TDCE0 766:638 JLINK_ReadMem (0x20001010, 0x0004 Bytes, ...) -- CPU_ReadMem(4 bytes @ 0x20001010) - Data: 00 00 00 00  returns 0x00 (0001ms, 1010ms total)
TDCE0 766:639 JLINK_ReadMem (0x2000104C, 0x0004 Bytes, ...) -- CPU_ReadMem(4 bytes @ 0x2000104C) - Data: F7 0F 00 00  returns 0x00 (0000ms, 1010ms total)
TDCE0 766:639 JLINK_ReadMem (0x20001048, 0x0004 Bytes, ...) -- CPU_ReadMem(4 bytes @ 0x20001048) - Data: 00 1C 01 40  returns 0x00 (0000ms, 1010ms total)
TDCE0 766:639 JLINK_ReadMem (0x20001064, 0x0004 Bytes, ...) -- CPU_ReadMem(4 bytes @ 0x20001064) - Data: AB 11 00 00  returns 0x00 (0001ms, 1011ms total)
TDCE0 766:640 JLINK_ReadMem (0x20001060, 0x0004 Bytes, ...) -- CPU_ReadMem(4 bytes @ 0x20001060) - Data: EC 11 00 00  returns 0x00 (0000ms, 1011ms total)
TDCE0 766:642 JLINK_ReadMem (0x00000000, 0x0004 Bytes, ...) -- Read from DA cache (4 bytes @ 0x00000000) - Data: 68 10 00 20  returns 0x00 (0000ms, 1011ms total)
TDCE0 766:645 JLINK_ReadMem (0x20001000, 0x0001 Bytes, ...) -- CPU_ReadMem(1 bytes @ 0x20001000) - Data: 00  returns 0x00 (0000ms, 1011ms total)
T53A8 767:139 JLINK_Step() -- Read from DA cache (2 bytes @ 0x000008B6) -- Not simulated -- CPU_WriteMem(4 bytes @ 0xE0002008) -- CPU_WriteMem(4 bytes @ 0xE000200C) -- CPU_WriteMem(4 bytes @ 0xE0001004)  returns 0x00 (0006ms, 1017ms total)
T53A8 767:145 JLINK_ReadReg(R15 (PC))  returns 0x000008B8 (0000ms, 1017ms total)
T53A8 767:145 JLINK_ReadReg(XPSR)  returns 0x61000000 (0000ms, 1017ms total)
T53A8 767:145 JLINK_ReadReg(R0)  returns 0x007A1200 (0000ms, 1017ms total)
T53A8 767:145 JLINK_ReadReg(R1)  returns 0x007A1200 (0000ms, 1017ms total)
T53A8 767:145 JLINK_ReadReg(R2)  returns 0x40000200 (0000ms, 1017ms total)
T53A8 767:145 JLINK_ReadReg(R3)  returns 0xFFFFFB00 (0000ms, 1017ms total)
T53A8 767:145 JLINK_ReadReg(R4)  returns 0x20001018 (0000ms, 1017ms total)
T53A8 767:145 JLINK_ReadReg(R5)  returns 0x40011C00 (0000ms, 1017ms total)
T53A8 767:145 JLINK_ReadReg(R6)  returns 0x00000000 (0000ms, 1017ms total)
T53A8 767:145 JLINK_ReadReg(R7)  returns 0x00000000 (0000ms, 1017ms total)
T53A8 767:145 JLINK_ReadReg(R8)  returns 0x00000000 (0000ms, 1017ms total)
T53A8 767:145 JLINK_ReadReg(R9)  returns 0x2000020C (0000ms, 1017ms total)
T53A8 767:145 JLINK_ReadReg(R10)  returns 0x000011EC (0000ms, 1017ms total)
T53A8 767:145 JLINK_ReadReg(R11)  returns 0x000011EC (0000ms, 1017ms total)
T53A8 767:145 JLINK_ReadReg(R12)  returns 0x00000000 (0000ms, 1017ms total)
T53A8 767:145 JLINK_ReadReg(R13 (SP))  returns 0x20000FF0 (0000ms, 1017ms total)
T53A8 767:145 JLINK_ReadReg(R14)  returns 0x00000CE5 (0000ms, 1017ms total)
T53A8 767:145 JLINK_ReadReg(R15 (PC))  returns 0x000008B8 (0000ms, 1017ms total)
T53A8 767:145 JLINK_ReadReg(XPSR)  returns 0x61000000 (0000ms, 1017ms total)
T53A8 767:145 JLINK_ReadReg(MSP)  returns 0x20000FF0 (0000ms, 1017ms total)
T53A8 767:145 JLINK_ReadReg(PSP)  returns 0x20001000 (0000ms, 1017ms total)
T53A8 767:145 JLINK_ReadReg(CFBP)  returns 0x00000000 (0000ms, 1017ms total)
TDCE0 767:146 JLINK_ReadMem (0x20000FF4, 0x0004 Bytes, ...) -- CPU_ReadMem(4 bytes @ 0x20000FF4) - Data: E5 0C 00 00  returns 0x00 (0000ms, 1017ms total)
TDCE0 767:146 JLINK_ReadMem (0x20000FF0, 0x0004 Bytes, ...) -- CPU_ReadMem(4 bytes @ 0x20000FF0) - Data: 18 10 00 20  returns 0x00 (0000ms, 1017ms total)
TDCE0 767:146 JLINK_ReadMem (0x20001014, 0x0004 Bytes, ...) -- CPU_ReadMem(4 bytes @ 0x20001014) - Data: 29 11 00 00  returns 0x00 (0000ms, 1017ms total)
TDCE0 767:146 JLINK_ReadMem (0x20001004, 0x0004 Bytes, ...) -- CPU_ReadMem(4 bytes @ 0x20001004) - Data: 00 1C 01 40  returns 0x00 (0001ms, 1018ms total)
TDCE0 767:147 JLINK_ReadMem (0x20001008, 0x0004 Bytes, ...) -- CPU_ReadMem(4 bytes @ 0x20001008) - Data: 04 00 00 20  returns 0x00 (0001ms, 1019ms total)
TDCE0 767:148 JLINK_ReadMem (0x2000100C, 0x0004 Bytes, ...) -- CPU_ReadMem(4 bytes @ 0x2000100C) - Data: 00 00 00 00  returns 0x00 (0000ms, 1019ms total)
TDCE0 767:148 JLINK_ReadMem (0x20001010, 0x0004 Bytes, ...) -- CPU_ReadMem(4 bytes @ 0x20001010) - Data: 00 00 00 00  returns 0x00 (0000ms, 1019ms total)
TDCE0 767:148 JLINK_ReadMem (0x2000104C, 0x0004 Bytes, ...) -- CPU_ReadMem(4 bytes @ 0x2000104C) - Data: F7 0F 00 00  returns 0x00 (0000ms, 1019ms total)
TDCE0 767:148 JLINK_ReadMem (0x20001048, 0x0004 Bytes, ...) -- CPU_ReadMem(4 bytes @ 0x20001048) - Data: 00 1C 01 40  returns 0x00 (0000ms, 1019ms total)
TDCE0 767:148 JLINK_ReadMem (0x20001064, 0x0004 Bytes, ...) -- CPU_ReadMem(4 bytes @ 0x20001064) - Data: AB 11 00 00  returns 0x00 (0001ms, 1020ms total)
TDCE0 767:149 JLINK_ReadMem (0x20001060, 0x0004 Bytes, ...) -- CPU_ReadMem(4 bytes @ 0x20001060) - Data: EC 11 00 00  returns 0x00 (0000ms, 1020ms total)
TDCE0 767:149 JLINK_ReadMem (0x00000000, 0x0004 Bytes, ...) -- CPU_ReadMem(64 bytes @ 0x00000000) -- Updating DA cache (64 bytes @ 0x00000000) -- Read from DA cache (4 bytes @ 0x00000000) - Data: 68 10 00 20  returns 0x00 (0001ms, 1021ms total)
TDCE0 767:150 JLINK_ReadMem (0x20001000, 0x0001 Bytes, ...) -- CPU_ReadMem(1 bytes @ 0x20001000) - Data: 00  returns 0x00 (0000ms, 1021ms total)
TDCE0 767:151 JLINK_ReadMem (0x000008B8, 0x003C Bytes, ...) -- CPU_ReadMem(128 bytes @ 0x00000880) -- Updating DA cache (128 bytes @ 0x00000880) -- Read from DA cache (60 bytes @ 0x000008B8) - Data: D2 68 07 23 1B 04 1A 40 05 24 24 04 13 1B A2 42 ...  returns 0x00 (0003ms, 1024ms total)
TDCE0 767:161 JLINK_ReadMem (0x000008B6, 0x0002 Bytes, ...) -- Read from DA cache (2 bytes @ 0x000008B6) - Data: 13 4A  returns 0x00 (0000ms, 1024ms total)
TDCE0 770:167 JLINK_ReadMem (0x4000020C, 0x0004 Bytes, ...) -- CPU_ReadMem(4 bytes @ 0x4000020C) - Data: C0 00 00 0A  returns 0x00 (0001ms, 1025ms total)
TDCE0 770:603 JLINK_ReadMem (0x4000020C, 0x0004 Bytes, ...) -- CPU_ReadMem(4 bytes @ 0x4000020C) - Data: C0 00 00 0A  returns 0x00 (0000ms, 1025ms total)
TDCE0 772:025 JLINK_ReadMem (0x4000020C, 0x0004 Bytes, ...) -- CPU_ReadMem(4 bytes @ 0x4000020C) - Data: C0 00 00 0A  returns 0x00 (0001ms, 1026ms total)
TDCE0 795:758 JLINK_ReadMem (0x4000020C, 0x0004 Bytes, ...) -- CPU_ReadMem(4 bytes @ 0x4000020C) - Data: C0 00 00 0A  returns 0x00 (0001ms, 1027ms total)
TDCE0 798:386 JLINK_ReadMem (0x4000020C, 0x0004 Bytes, ...) -- CPU_ReadMem(4 bytes @ 0x4000020C) - Data: C0 00 00 0A  returns 0x00 (0001ms, 1028ms total)
TDCE0 798:708 JLINK_ReadMem (0x4000020C, 0x0004 Bytes, ...) -- CPU_ReadMem(4 bytes @ 0x4000020C) - Data: C0 00 00 0A  returns 0x00 (0000ms, 1028ms total)
TDCE0 799:478 JLINK_ReadMem (0x4000020C, 0x0004 Bytes, ...) -- CPU_ReadMem(4 bytes @ 0x4000020C) - Data: C0 00 00 0A  returns 0x00 (0001ms, 1029ms total)
T53A8 814:827 JLINK_Step() -- Read from DA cache (2 bytes @ 0x000008B8) -- CPU_ReadMem(4 bytes @ 0xE0001004) -- Not simulated  returns 0x00 (0005ms, 1034ms total)
T53A8 814:832 JLINK_ReadReg(R15 (PC))  returns 0x000008BA (0000ms, 1034ms total)
T53A8 814:832 JLINK_ReadReg(XPSR)  returns 0x61000000 (0000ms, 1034ms total)
T53A8 814:832 JLINK_ReadReg(R0)  returns 0x007A1200 (0000ms, 1034ms total)
T53A8 814:832 JLINK_ReadReg(R1)  returns 0x007A1200 (0000ms, 1034ms total)
T53A8 814:832 JLINK_ReadReg(R2)  returns 0x0A0000C0 (0000ms, 1034ms total)
T53A8 814:832 JLINK_ReadReg(R3)  returns 0xFFFFFB00 (0000ms, 1034ms total)
T53A8 814:832 JLINK_ReadReg(R4)  returns 0x20001018 (0000ms, 1034ms total)
T53A8 814:832 JLINK_ReadReg(R5)  returns 0x40011C00 (0000ms, 1034ms total)
T53A8 814:832 JLINK_ReadReg(R6)  returns 0x00000000 (0000ms, 1034ms total)
T53A8 814:832 JLINK_ReadReg(R7)  returns 0x00000000 (0000ms, 1034ms total)
T53A8 814:832 JLINK_ReadReg(R8)  returns 0x00000000 (0000ms, 1034ms total)
T53A8 814:832 JLINK_ReadReg(R9)  returns 0x2000020C (0000ms, 1034ms total)
T53A8 814:832 JLINK_ReadReg(R10)  returns 0x000011EC (0000ms, 1034ms total)
